freq,vout,vin
0,0,0
1.6E-11,0,0
4.8E-11,0,0
1.12E-10,0,0
2.4E-10,0,0
4.96E-10,0,0
8.16E-10,0,0
0.000000001136,0,0
0.000000001456,0,0
0.000000001776,0,0
0.000000002,0,0
2.00043889116989E-09,1.5649065952486E-18,0.00219445584944011
2.00049832901892E-09,1.81003451742575E-18,0.002491645094614
2.00061720471699E-09,2.3770815273678E-18,0.00308602358496178
2.00074345286012E-09,3.17568784027957E-18,0.00371726430060243
2.0008616883213E-09,4.1642224678104E-18,0.0043084416064857
2.00109815924365E-09,7.22944735967128E-18,0.00549079621825224
2.00157110108836E-09,2.32293826906286E-17,0.00785550544178532
2.00251698477777E-09,2.64307311903502E-16,0.0125849238888515
2.0044087521566E-09,1.17102844239888E-14,0.0220437607829838
2.0080355960613E-09,8.165140265836E-13,0.040177980306524
2.01332818619721E-09,2.22428248165552E-11,0.0666409309860521
2.02065636712874E-09,3.89066455416852E-10,0.103281835643681
2.03002113061139E-09,4.42063529507221E-09,0.150105653056967
2.04149315332279E-09,3.65096779059114E-08,0.207465766613942
2.05498611459342E-09,2.30228956119566E-07,0.274930572967097
2.07030429833162E-09,1.1510743726441E-06,0.351521491658118
2.08745761961082E-09,4.82397231688971E-06,0.43728809805411
2.1065807417156E-09,1.76888116573154E-05,0.532903708577994
2.12786459618493E-09,5.84115497582227E-05,0.639322980924664
2.1514580635617E-09,0.000176444123838695,0.75729031780848
2.17785176088735E-09,0.000499416322652701,0.889258804436772
2.20790765698476E-09,0.00135673168932579,1.0395382849238
2.24337915280901E-09,0.00365547179169694,1.21689576404505
2.2817238503928E-09,0.00892935663699407,1.408619251964
2.31682717547168E-09,0.0178243844523484,1.58413587735839
2.35133432935686E-09,0.0321704204883288,1.75667164678431
2.38683384792218E-09,0.0547896728684968,1.93416923961091
2.42756796661184E-09,0.0933879941500225,2.13783983305922
2.47180623356669E-09,0.153934448988643,2.35903116783347
2.51815047876978E-09,0.241404923170737,2.59075239384893
2.56426096256929E-09,0.355041937191164,2.82130481284642
2.60841402870844E-09,0.48952628363219,3.04207014354221
2.65696879222847E-09,0.66591500977973,3.28484396114237
2.70932234454402E-09,0.887582766951392,3.54661172272008
2.75693076514374E-09,1.11492805361006,3.78465382571871
2.8035822209369E-09,1.35842920169219,4.01791110468448
2.85386646009531E-09,1.6398314949328,4.26933230047657
2.91379816818914E-09,1.99399829080957,4.56899084094569
2.95689908409457E-09,2.25691366446958,4.78449542047284
0.000000003,2.52252851590119,5
3.01877767107699E-09,2.63810539456709,5
3.05051673020853E-09,2.83270682311085,5
3.0878110748029E-09,3.05881942050793,5
3.13291292658903E-09,3.32709492370187,5
3.17269842606139E-09,3.55814409502884,5
3.2141925282605E-09,3.79283665627336,5
3.2628614904923E-09,4.05895423392566,5
3.31834993442802E-09,4.3478586090095,5
3.36035618810069E-09,4.55387232437407,5
3.39980151959834E-09,4.73475165035563,5
3.4397578342169E-09,4.90305561130497,5
3.49557511516461E-09,5.10874856119504,5
3.5465766792638E-09,5.26383948420777,5
3.5898485444989E-09,5.36968737260702,5
3.63143744380013E-09,5.44932589485431,5
3.68024368424255E-09,5.51633374021307,5
3.73611333431411E-09,5.56015515673981,5
3.78192820192468E-09,5.57168606366636,5
3.82594071250236E-09,5.56376622114611,5
3.87460253056731E-09,5.5356095511408,5
3.93283168571895E-09,5.47972445457389,5
3.97905963447851E-09,5.4222497465825,5
4.0228987715585E-09,5.36114264150513,5
4.06944197831146E-09,5.29320342795732,5
4.13200443340701E-09,5.20272731268436,5
4.17929486105212E-09,5.13756437541256,5
4.22360289137913E-09,5.08012404186351,5
4.2682074314253E-09,5.02583775696078,5
4.32970022905352E-09,4.95630193282527,5
4.38208398567277E-09,4.90168316940311,5
4.42889961154434E-09,4.85657262515577,5
4.47640597858496E-09,4.81462864216377,5
4.53773772332805E-09,4.76614844231891,5
4.59115936070484E-09,4.72844117659871,5
4.63900575070172E-09,4.69721690470609,5
4.68936809109872E-09,4.66591814566133,5
4.75465530997343E-09,4.62719320525306,5
4.80468934546006E-09,4.59952936348613,5
4.85211469779648E-09,4.57621013401121,5
4.90215749779855E-09,4.55617924681265,5
4.96930999298557E-09,4.53851119533636,5
5.01985378885336E-09,4.5324703030886,5
5.06909986276354E-09,4.53201674360969,5
5.12264549849769E-09,4.53650786503976,5
5.18965323247825E-09,4.54795992842425,5
5.24083439175312E-09,4.56049654871426,5
5.29276891673859E-09,4.57627493560935,5
5.35707148162694E-09,4.59932743197087,5
5.41853057080736E-09,4.62333480522062,5
5.46970721094176E-09,4.64297411796982,5
5.52375670507027E-09,4.66146448086168,5
5.59521415880449E-09,4.68055543053698,5
5.64883936888859E-09,4.69079238542402,5
5.70124912528281E-09,4.69822530459297,5
5.76036185149811E-09,4.70485112158435,5
5.83185026278714E-09,4.71156762419402,5
5.88474535838718E-09,4.71575179818369,5
5.94127896690836E-09,4.71918767346147,5
6.01371262419206E-09,4.72197456234586,5
6.07163394616634E-09,4.72347572601703,5
6.12754494128939E-09,4.72524225168391,5
6.19451581996448E-09,4.72857708643197,5
6.26245125991949E-09,4.73297580309053,5
6.31743322707294E-09,4.73628223362929,5
6.3776066660672E-09,4.73828821134258,5
6.45541406712132E-09,4.73743869360411,5
6.51206477825555E-09,4.73468035571966,5
6.5713278053294E-09,4.7308445690167,5
6.65002940455235E-09,4.72551401358224,5
6.71181534087288E-09,4.72132590089594,5
6.77174688214506E-09,4.71692000132652,5
6.84623543730179E-09,4.71074145672814,5
6.9140134470642E-09,4.70510498483135,5
6.97375330551427E-09,4.70118785714557,5
7.04449831581599E-09,4.69890008197596,5
7.12069652911107E-09,4.6991194064633,5
7.18041802705275E-09,4.70031076010452,5
7.24941982718351E-09,4.70142879689149,5
7.33566310998826E-09,4.70176495567702,5
7.39680071348355E-09,4.70165046318832,5
7.46825281333862E-09,4.70191764545078,5
7.55550371535594E-09,4.7027728677576,5
7.61857891994919E-09,4.70312296190218,5
7.69387464975286E-09,4.70245533555909,5
7.7829969416137E-09,4.70069647981087,5
7.84748810232816E-09,4.6997706272395,5
7.9286000901826E-09,4.7002250654228,5
8.00863231836032E-09,4.70214899382381,5
8.07503384789585E-09,4.7039248913743,5
8.1629406797444E-09,4.70534698326969,5
8.23725437262325E-09,4.70586074806351,5
8.30723352506404E-09,4.70645205645194,5
8.40300763712154E-09,4.707844505993,5
8.47421108647754E-09,4.70875007878064,5
8.54964299325273E-09,4.70867630425393,5
8.64715882922921E-09,4.70708826335331,5
8.71716676934282E-09,4.70577393718536,5
8.80038360491769E-09,4.70522241807241,5
8.89658639726017E-09,4.70577918434174,5
8.96887254008699E-09,4.7062286502826,5
9.07271230406645E-09,4.70599941512134,5
9.15159821387713E-09,4.70560217383014,5
9.23354687517077E-09,4.70581634575251,5
9.33922227479088E-09,4.70677811687609,5
9.41451800286229E-09,4.70710064545201,5
9.51692350179807E-09,4.70624461651621,5
9.60207942080673E-09,4.70508762537863,5
9.68557364552695E-09,4.70463030142542,5
9.79693501562529E-09,4.70513185583491,5
9.87543965931908E-09,4.70549416464077,5
9.98579578370876E-09,4.70519192405038,5
1.007343908368E-08,4.70486362155969,5
1.01647755589961E-08,4.70526850257227,5
1.02833705742954E-08,4.70630276744616,5
1.03675921397026E-08,4.70646593756715,5
1.04539985919567E-08,4.70584874894971,5
1.05396229835431E-08,4.7052032109083,5
1.06366892367932E-08,4.70525289225361,5
1.07355609436242E-08,4.70579321340424,5
1.08231118092814E-08,4.70588147923526,5
1.09465173550344E-08,4.70532909813862,5
1.10344784838689E-08,4.7051952014705,5
1.11625100108434E-08,4.70591669146278,5
1.12588492126973E-08,4.7063608824104,5
1.13713196918881E-08,4.70593820114768,5
1.14796851733853E-08,4.70531882789303,5
1.15816717693148E-08,4.70542126240914,5
1.17090549578534E-08,4.70592589332496,5
1.18077885418866E-08,4.70580007796806,5
1.19515013047097E-08,4.70524503256949,5
1.20523498278171E-08,4.70540493402619,5
1.21565707161265E-08,4.70598186613372,5
1.22562169844611E-08,4.70609879750739,5
1.23942963227214E-08,4.7055015150401,5
1.24946392928976E-08,4.70530745620344,5
1.26481603275173E-08,4.7058012201561,5
1.2756807081606E-08,4.70591111091133,5
1.2878403540803E-08,4.70546202554002,5
1.29392017704015E-08,4.70529876213612,5
0.000000013,4.70540522857783,5
1.30203105362116E-08,4.7055047503763,4.89844731894222
1.30582381210646E-08,4.70569658603033,4.7088093946769
1.31269689670925E-08,4.7057157071613,4.3651551645375
1.31825565001085E-08,4.70466668937972,4.08721749945745
1.32293719980122E-08,4.70184094540384,3.8531400099388
1.32754316660088E-08,4.69544651914063,3.6228416699558
1.33304559106168E-08,4.67898683432488,3.34772044691625
1.33767119132196E-08,4.65351586189785,3.11644043390197
1.3421380130413E-08,4.61425561920413,2.89309934793498
1.34685785400415E-08,4.55247084256428,2.65710729979271
1.35314443999331E-08,4.4309418451427,2.34277800033475
1.35858061884947E-08,4.28600986080725,2.07096905752659
1.36339406359979E-08,4.12579711211027,1.83029682001077
1.36825175880641E-08,3.93485120642037,1.58741205967943
1.37444488487376E-08,3.65282300086969,1.27775575631187
1.37937743942348E-08,3.40101036641017,1.03112802882582
1.38441863798392E-08,3.12329984369946,0.779068100803784
1.38987390711187E-08,2.80502526165288,0.506304644406471
1.39493695355594E-08,2.49845887342959,0.253152322203229
0.000000014,2.1867211113363,0
1.40193093188273E-08,2.06765044646501,0
1.40525695067729E-08,1.8632795588112,0
1.40947551037786E-08,1.60709926709014,0
1.4140581124628E-08,1.33450341803531,0
1.41819955007554E-08,1.09446457781369,0
1.42232256813463E-08,0.862266018440054,0
1.42707671440473E-08,0.603956245540932,0
1.43280958717728E-08,0.308549200969147,0
1.43708659263049E-08,0.102121683471805,0
1.44108591495007E-08,-0.0773971557638272,0
1.44507197158264E-08,-0.240852855309394,0
1.45049562240679E-08,-0.434512173825864,0
1.4557804626928E-08,-0.588470973625355,0
1.46010701116405E-08,-0.688009282327824,0
1.46428314144509E-08,-0.761788455737472,0
1.46905796824718E-08,-0.820653399134537,0
1.47471129507129E-08,-0.857766682671823,0
1.47934004613397E-08,-0.863931890279156,0
1.48376205810163E-08,-0.851390466830774,0
1.48857432742282E-08,-0.819618584637451,0
1.49440221473688E-08,-0.760447369065093,0
1.49909914804699E-08,-0.70041710310505,0
1.50351441236648E-08,-0.638039543935165,0
1.5081758147352E-08,-0.569819041821405,0
1.51445756697678E-08,-0.479640504747983,0
1.51923253242578E-08,-0.414875616846584,0
1.5236843027422E-08,-0.35837110217409,0
1.52815841427615E-08,-0.305225440863411,0
1.53435993940346E-08,-0.236859789535439,0
1.53965604099894E-08,-0.182981227232067,0
1.54435039828807E-08,-0.138737705154439,0
1.54911616157101E-08,-0.0974492527101054,0
1.55527227073116E-08,-0.0495362179665368,0
1.56062832126632E-08,-0.0122150240815129,0
1.5654404581892E-08,0.0187883069329144,0
1.57052785455008E-08,0.0498987589177751,0
1.57706428572188E-08,0.0877197829458837,0
1.58206734383279E-08,0.114341464796635,0
1.58683724398432E-08,0.136507451890473,0
1.5919230939368E-08,0.155160582401771,0
1.5959615469684E-08,0.165575004514797,0
0.000000016,0.171846730729158,0
